
T3648 000:360 SEGGER J-Link V4.96d Log File (0000ms, 0286ms total)
T3648 000:360 DLL Compiled: Jan 29 2015 11:45:37 (0000ms, 0286ms total)
T3648 000:360 Logging started @ 2018-05-16 12:38 (0000ms, 0286ms total)
T3648 000:360 JLINK_SetWarnOutHandler(...) (0000ms, 0286ms total)
T3648 000:360 JLINK_OpenEx(...)
Firmware: J-Link ARM V8 compiled Nov 28 2014 13:44:46
Hardware: V8.00
S/N: 17935099
Feature(s): RDI,FlashDL,FlashBP,JFlash  returns O.K. (0273ms, 0559ms total)
T3648 000:633 JLINK_SetErrorOutHandler(...) (0000ms, 0559ms total)
T3648 000:633 JLINK_ExecCommand("ProjectFile = "F:\毕业设计\程序\土壤湿度 - 最终\USER\JLinkSettings.ini"", ...)  returns 0x00 (0001ms, 0560ms total)
T3648 000:648 JLINK_ExecCommand("Device = STM32F407ZG", ...)Device "STM32F407ZG" selected.  returns 0x00 (0028ms, 0588ms total)
T3648 000:676 JLINK_ExecCommand("DisableConnectionTimeout", ...)  returns 0x01 (0001ms, 0589ms total)
T3648 000:677 JLINK_GetHardwareVersion()  returns 0x13880 (0000ms, 0589ms total)
T3648 000:677 JLINK_GetDLLVersion()  returns 49604 (0000ms, 0589ms total)
T3648 000:677 JLINK_GetFirmwareString(...) (0000ms, 0589ms total)
T3648 000:716 JLINK_GetDLLVersion()  returns 49604 (0000ms, 0589ms total)
T3648 000:716 JLINK_GetCompileDateTime() (0000ms, 0589ms total)
T3648 000:719 JLINK_GetFirmwareString(...) (0000ms, 0589ms total)
T3648 000:722 JLINK_GetHardwareVersion()  returns 0x13880 (0000ms, 0589ms total)
T3648 000:738 JLINK_TIF_Select(JLINKARM_TIF_SWD)  returns 0x00 (0001ms, 0590ms total)
T3648 000:739 JLINK_SetSpeed(10000) (0000ms, 0590ms total)
T3648 000:739 JLINK_GetId() >0x108 TIF>Found SWD-DP with ID 0x2BA01477 >0x0D TIF> >0x28 TIF> >0x0D TIF> >0x28 TIF> >0x0D TIF> >0x21 TIF> >0x0D TIF> >0x28 TIF> >0x0D TIF> >0x28 TIF> >0x0D TIF> >0x28 TIF> >0x0D TIF> >0x21 TIF> >0x0D TIF> >0x21 TIF> >0x0D TIF> >0x28 TIF> >0x0D TIF> >0x21 TIF> >0x0D TIF> >0x21 TIF> >0x0D TIF> >0x28 TIF> >0x0D TIF> >0x28 TIF> >0x0D TIF> >0x28 TIF> >0x0D TIF> >0x21 TIF> >0x0D TIF> >0x21 TIF> >0x0D TIF> >0x28 TIF> >0x0D TIF> >0x28 TIF> >0x108 TIF>Found SWD-DP with ID 0x2BA01477
 >0x0D TIF> >0x21 TIF> >0x0D TIF> >0x28 TIF> >0x0D TIF> >0x28 TIF> >0x0D TIF> >0x21 TIF> >0x0D TIF> >0x28 TIF> >0x0D TIF> >0x21 TIF> >0x0D TIF> >0x21 TIF> >0x0D TIF> >0x21 TIF> >0x0D TIF> >0x21 TIF> >0x0D TIF> >0x28 TIF> >0x0D TIF> >0x28 TIF> >0x0D TIF> >0x21 TIF> >0x0D TIF> >0x28 TIF> >0x0D TIF> >0x28 TIF> >0x0D TIF> >0x28 TIF> >0x0D TIF> >0x21 TIF> >0x0D TIF> >0x21 TIF> >0x0D TIF> >0x28 TIF> >0x0D TIF> >0x21 TIF> >0x0D TIF> >0x21 TIF>Found Cortex-M4 r0p1, Little endian.
 -- CPU_WriteMem(4 bytes @ 0xE0002000) -- CPU_ReadMem(4 bytes @ 0xE000EDF0) -- CPU_WriteMem(4 bytes @ 0xE000EDF0) -- CPU_ReadMem(4 bytes @ 0xE0002000)FPUnit: 6 code (BP) slots and 2 literal slots -- CPU_ReadMem(4 bytes @ 0xE000EDFC) -- CPU_WriteMem(4 bytes @ 0xE000EDFC) -- CPU_ReadMem(4 bytes @ 0xE0001000) -- CPU_WriteMem(4 bytes @ 0xE0001000) -- CPU_ReadMem(4 bytes @ 0xE000ED88) -- CPU_WriteMem(4 bytes @ 0xE000ED88) -- CPU_ReadMem(4 bytes @ 0xE000ED88) -- CPU_WriteMem(4 bytes @ 0xE000ED88)
 -- CPU_ReadMem(4 bytes @ 0xE00FF010)TPIU fitted. -- CPU_ReadMem(4 bytes @ 0xE00FF014)ETM fitted. -- CPU_ReadMem(4 bytes @ 0xE00FF018) >0x0D TIF> >0x21 TIF>  returns 0x2BA01477 (0040ms, 0630ms total)
T3648 000:779 JLINK_GetDLLVersion()  returns 49604 (0000ms, 0630ms total)
T3648 000:779 JLINK_CORE_GetFound()  returns 0xE0000FF (0000ms, 0630ms total)
T3648 000:779 JLINK_GetDebugInfo(0x100) -- Value=0xE00FF003  returns 0x00 (0000ms, 0630ms total)
T3648 000:781 JLINK_ReadMem (0xE00FF000, 0x0020 Bytes, ...) -- CPU is running -- CPU_ReadMem(32 bytes @ 0xE00FF000) - Data: 03 F0 F0 FF 03 20 F0 FF 03 30 F0 FF 03 10 F0 FF ...  returns 0x00 (0001ms, 0631ms total)
T3648 000:782 JLINK_ReadMem (0xE000EFF0, 0x0010 Bytes, ...) -- CPU is running -- CPU_ReadMem(16 bytes @ 0xE000EFF0) - Data: 0D 00 00 00 E0 00 00 00 05 00 00 00 B1 00 00 00  returns 0x00 (0000ms, 0631ms total)
T3648 000:782 JLINK_ReadMem (0xE000EFD0, 0x0020 Bytes, ...) -- CPU is running -- CPU_ReadMem(32 bytes @ 0xE000EFD0) - Data: 04 00 00 00 00 00 00 00 00 00 00 00 00 00 00 00 ...  returns 0x00 (0001ms, 0632ms total)
T3648 000:783 JLINK_ReadMem (0xE0001FF0, 0x0010 Bytes, ...) -- CPU is running -- CPU_ReadMem(16 bytes @ 0xE0001FF0) - Data: 0D 00 00 00 E0 00 00 00 05 00 00 00 B1 00 00 00  returns 0x00 (0001ms, 0633ms total)
T3648 000:784 JLINK_ReadMem (0xE0001FD0, 0x0020 Bytes, ...) -- CPU is running -- CPU_ReadMem(32 bytes @ 0xE0001FD0) - Data: 04 00 00 00 00 00 00 00 00 00 00 00 00 00 00 00 ...  returns 0x00 (0000ms, 0633ms total)
T3648 000:784 JLINK_ReadMem (0xE0002FF0, 0x0010 Bytes, ...) -- CPU is running -- CPU_ReadMem(16 bytes @ 0xE0002FF0) - Data: 0D 00 00 00 E0 00 00 00 05 00 00 00 B1 00 00 00  returns 0x00 (0001ms, 0634ms total)
T3648 000:785 JLINK_ReadMem (0xE0002FD0, 0x0020 Bytes, ...) -- CPU is running -- CPU_ReadMem(32 bytes @ 0xE0002FD0) - Data: 04 00 00 00 00 00 00 00 00 00 00 00 00 00 00 00 ...  returns 0x00 (0000ms, 0634ms total)
T3648 000:785 JLINK_ReadMem (0xE0000FF0, 0x0010 Bytes, ...) -- CPU is running -- CPU_ReadMem(16 bytes @ 0xE0000FF0) - Data: 0D 00 00 00 E0 00 00 00 05 00 00 00 B1 00 00 00  returns 0x00 (0001ms, 0635ms total)
T3648 000:786 JLINK_ReadMem (0xE0000FD0, 0x0020 Bytes, ...) -- CPU is running -- CPU_ReadMem(32 bytes @ 0xE0000FD0) - Data: 04 00 00 00 00 00 00 00 00 00 00 00 00 00 00 00 ...  returns 0x00 (0000ms, 0635ms total)
T3648 000:786 JLINK_ReadMem (0xE0040FF0, 0x0010 Bytes, ...) -- CPU is running -- CPU_ReadMem(16 bytes @ 0xE0040FF0) - Data: 0D 00 00 00 90 00 00 00 05 00 00 00 B1 00 00 00  returns 0x00 (0001ms, 0636ms total)
T3648 000:787 JLINK_ReadMem (0xE0040FD0, 0x0020 Bytes, ...) -- CPU is running -- CPU_ReadMem(32 bytes @ 0xE0040FD0) - Data: 04 00 00 00 00 00 00 00 00 00 00 00 00 00 00 00 ...  returns 0x00 (0000ms, 0636ms total)
T3648 000:787 JLINK_ReadMem (0xE0041FF0, 0x0010 Bytes, ...) -- CPU is running -- CPU_ReadMem(16 bytes @ 0xE0041FF0) - Data: 0D 00 00 00 90 00 00 00 05 00 00 00 B1 00 00 00  returns 0x00 (0001ms, 0637ms total)
T3648 000:788 JLINK_ReadMem (0xE0041FD0, 0x0020 Bytes, ...) -- CPU is running -- CPU_ReadMem(32 bytes @ 0xE0041FD0) - Data: 04 00 00 00 00 00 00 00 00 00 00 00 00 00 00 00 ...  returns 0x00 (0000ms, 0637ms total)
T3648 000:788 JLINK_ReadMemU32(0xE000EF40, 0x0001 Items, ...) -- CPU is running -- CPU_ReadMem(4 bytes @ 0xE000EF40) - Data: 21 00 11 10  returns 0x01 (0001ms, 0638ms total)
T3648 000:789 JLINK_ReadMemU32(0xE000EF44, 0x0001 Items, ...) -- CPU is running -- CPU_ReadMem(4 bytes @ 0xE000EF44) - Data: 11 00 00 11  returns 0x01 (0000ms, 0638ms total)
T3648 000:789 JLINK_ReadMemU32(0xE000ED00, 0x0001 Items, ...) -- CPU is running -- CPU_ReadMem(4 bytes @ 0xE000ED00) - Data: 41 C2 0F 41  returns 0x01 (0000ms, 0638ms total)
T3648 000:789 JLINK_SetResetType(JLINKARM_RESET_TYPE_NORMAL)  returns JLINKARM_RESET_TYPE_NORMAL (0000ms, 0638ms total)
T3648 000:789 JLINK_Reset() -- CPU is running -- CPU_WriteMem(4 bytes @ 0xE000EDF0) -- CPU is running -- CPU_WriteMem(4 bytes @ 0xE000EDFC) >0x35 TIF> -- CPU is running -- CPU_WriteMem(4 bytes @ 0xE000ED0C) -- CPU is running -- CPU_ReadMem(4 bytes @ 0xE000EDF0) -- CPU is running -- CPU_ReadMem(4 bytes @ 0xE000EDF0) -- CPU is running -- CPU_WriteMem(4 bytes @ 0xE000EDF0) -- CPU is running -- CPU_WriteMem(4 bytes @ 0xE000EDFC) -- CPU is running -- CPU_ReadMem(4 bytes @ 0xE000EDF0)
 -- CPU_WriteMem(4 bytes @ 0xE0002000) -- CPU_ReadMem(4 bytes @ 0xE000EDFC) -- CPU_ReadMem(4 bytes @ 0xE0001000) (0016ms, 0654ms total)
T3648 000:805 JLINK_Halt()  returns 0x00 (0000ms, 0654ms total)
T3648 000:805 JLINK_IsHalted()  returns TRUE (0000ms, 0654ms total)
T3648 000:805 JLINK_ReadMemU32(0xE000EDF0, 0x0001 Items, ...) -- CPU_ReadMem(4 bytes @ 0xE000EDF0) - Data: 03 00 03 00  returns 0x01 (0001ms, 0655ms total)
T3648 000:806 JLINK_WriteU32(0xE000EDF0, 0xA05F0003) -- CPU_WriteMem(4 bytes @ 0xE000EDF0)  returns 0x00 (0000ms, 0655ms total)
T3648 000:806 JLINK_WriteU32(0xE000EDFC, 0x01000000) -- CPU_WriteMem(4 bytes @ 0xE000EDFC)  returns 0x00 (0001ms, 0656ms total)
T3648 000:814 JLINK_GetHWStatus(...)  returns 0x00 (0001ms, 0657ms total)
T3648 000:825 JLINK_GetNumBPUnits(Type = 0xFFFFFF00)  returns 0x06 (0000ms, 0657ms total)
T3648 000:825 JLINK_GetNumBPUnits(Type = 0xF0)  returns 0x2000 (0001ms, 0658ms total)
T3648 000:826 JLINK_GetNumWPUnits()  returns 0x04 (0000ms, 0658ms total)
T3648 000:831 JLINK_GetSpeed()  returns 0xFA0 (0000ms, 0658ms total)
T3648 000:838 JLINK_ReadMemU32(0xE000E004, 0x0001 Items, ...) -- CPU_ReadMem(4 bytes @ 0xE000E004) - Data: 02 00 00 00  returns 0x01 (0001ms, 0659ms total)
T3648 000:839 JLINK_ReadMemU32(0xE000E004, 0x0001 Items, ...) -- CPU_ReadMem(4 bytes @ 0xE000E004) - Data: 02 00 00 00  returns 0x01 (0000ms, 0659ms total)
T3648 000:839 JLINK_WriteMem(0xE0001000, 0x001C Bytes, ...) - Data: 01 00 00 00 00 00 00 00 00 00 00 00 00 00 00 00 ... -- CPU_WriteMem(28 bytes @ 0xE0001000)  returns 0x1C (0001ms, 0660ms total)
T3648 000:840 JLINK_ReadMem (0xE0001000, 0x001C Bytes, ...) -- CPU_ReadMem(28 bytes @ 0xE0001000) - Data: 01 00 00 40 00 00 00 00 00 00 00 00 00 00 00 00 ...  returns 0x00 (0000ms, 0660ms total)
T3648 000:840 JLINK_Halt()  returns 0x00 (0000ms, 0660ms total)
T3648 000:840 JLINK_IsHalted()  returns TRUE (0000ms, 0660ms total)
T3648 000:844 JLINK_WriteMem(0x20000000, 0x0180 Bytes, ...) - Data: 00 BE 0A E0 0D 78 2D 06 68 40 08 24 40 00 00 D3 ... -- CPU_WriteMem(384 bytes @ 0x20000000)  returns 0x180 (0003ms, 0663ms total)
T3648 000:847 JLINK_WriteReg(R0, 0x08000000)  returns 0x00 (0000ms, 0663ms total)
T3648 000:847 JLINK_WriteReg(R1, 0x007A1200)  returns 0x00 (0000ms, 0663ms total)
T3648 000:847 JLINK_WriteReg(R2, 0x00000001)  returns 0x00 (0000ms, 0663ms total)
T3648 000:847 JLINK_WriteReg(R3, 0x00000000)  returns 0x00 (0000ms, 0663ms total)
T3648 000:847 JLINK_WriteReg(R4, 0x00000000)  returns 0x00 (0000ms, 0663ms total)
T3648 000:847 JLINK_WriteReg(R5, 0x00000000)  returns 0x00 (0000ms, 0663ms total)
T3648 000:847 JLINK_WriteReg(R6, 0x00000000)  returns 0x00 (0000ms, 0663ms total)
T3648 000:847 JLINK_WriteReg(R7, 0x00000000)  returns 0x00 (0000ms, 0663ms total)
T3648 000:847 JLINK_WriteReg(R8, 0x00000000)  returns 0x00 (0000ms, 0663ms total)
T3648 000:847 JLINK_WriteReg(R9, 0x2000017C)  returns 0x00 (0000ms, 0663ms total)
T3648 000:847 JLINK_WriteReg(R10, 0x00000000)  returns 0x00 (0000ms, 0663ms total)
T3648 000:847 JLINK_WriteReg(R11, 0x00000000)  returns 0x00 (0000ms, 0663ms total)
T3648 000:847 JLINK_WriteReg(R12, 0x00000000)  returns 0x00 (0000ms, 0663ms total)
T3648 000:847 JLINK_WriteReg(R13 (SP), 0x20001000)  returns 0x00 (0000ms, 0663ms total)
T3648 000:847 JLINK_WriteReg(R14, 0x20000001)  returns 0x00 (0000ms, 0663ms total)
T3648 000:847 JLINK_WriteReg(R15 (PC), 0x20000054)  returns 0x00 (0000ms, 0663ms total)
T3648 000:847 JLINK_WriteReg(XPSR, 0x01000000)  returns 0x00 (0000ms, 0663ms total)
T3648 000:847 JLINK_WriteReg(MSP, 0x20001000)  returns 0x00 (0000ms, 0663ms total)
T3648 000:847 JLINK_WriteReg(PSP, 0x20001000)  returns 0x00 (0000ms, 0663ms total)
T3648 000:847 JLINK_WriteReg(CFBP, 0x00000000)  returns 0x00 (0000ms, 0663ms total)
T3648 000:847 JLINK_SetBPEx(Addr = 0x20000000, Type = 0xFFFFFFF2) -- CPU_ReadMem(2 bytes @ 0x20000000)  returns 0x00000001 (0001ms, 0664ms total)
T3648 000:848 JLINK_Go() -- CPU_WriteMem(2 bytes @ 0x20000000) -- CPU_WriteMem(4 bytes @ 0xE0002008) -- CPU_WriteMem(4 bytes @ 0xE000200C) -- CPU_WriteMem(4 bytes @ 0xE0002010) -- CPU_WriteMem(4 bytes @ 0xE0002014) -- CPU_WriteMem(4 bytes @ 0xE0002018) -- CPU_WriteMem(4 bytes @ 0xE000201C) -- CPU_WriteMem(4 bytes @ 0xE0001004) (0004ms, 0668ms total)
T3648 000:852 JLINK_IsHalted() -- CPU_ReadMem(2 bytes @ 0x20000000)  returns TRUE (0002ms, 0670ms total)
T3648 000:854 JLINK_ReadReg(R15 (PC))  returns 0x20000000 (0000ms, 0668ms total)
T3648 000:854 JLINK_ClrBPEx(BPHandle = 0x00000001)  returns 0x00 (0000ms, 0668ms total)
T3648 000:854 JLINK_ReadReg(R0)  returns 0x00000000 (0000ms, 0668ms total)
T3648 000:855 JLINK_WriteReg(R0, 0x08000000)  returns 0x00 (0000ms, 0668ms total)
T3648 000:855 JLINK_WriteReg(R1, 0x00004000)  returns 0x00 (0000ms, 0668ms total)
T3648 000:855 JLINK_WriteReg(R2, 0x000000FF)  returns 0x00 (0000ms, 0668ms total)
T3648 000:855 JLINK_WriteReg(R3, 0x00000000)  returns 0x00 (0000ms, 0668ms total)
T3648 000:855 JLINK_WriteReg(R4, 0x00000000)  returns 0x00 (0000ms, 0668ms total)
T3648 000:855 JLINK_WriteReg(R5, 0x00000000)  returns 0x00 (0000ms, 0668ms total)
T3648 000:855 JLINK_WriteReg(R6, 0x00000000)  returns 0x00 (0000ms, 0668ms total)
T3648 000:855 JLINK_WriteReg(R7, 0x00000000)  returns 0x00 (0000ms, 0668ms total)
T3648 000:855 JLINK_WriteReg(R8, 0x00000000)  returns 0x00 (0000ms, 0668ms total)
T3648 000:855 JLINK_WriteReg(R9, 0x2000017C)  returns 0x00 (0000ms, 0668ms total)
T3648 000:855 JLINK_WriteReg(R10, 0x00000000)  returns 0x00 (0000ms, 0668ms total)
T3648 000:855 JLINK_WriteReg(R11, 0x00000000)  returns 0x00 (0000ms, 0668ms total)
T3648 000:855 JLINK_WriteReg(R12, 0x00000000)  returns 0x00 (0000ms, 0668ms total)
T3648 000:855 JLINK_WriteReg(R13 (SP), 0x20001000)  returns 0x00 (0000ms, 0668ms total)
T3648 000:855 JLINK_WriteReg(R14, 0x20000001)  returns 0x00 (0000ms, 0668ms total)
T3648 000:855 JLINK_WriteReg(R15 (PC), 0x20000020)  returns 0x00 (0000ms, 0668ms total)
T3648 000:855 JLINK_WriteReg(XPSR, 0x01000000)  returns 0x00 (0000ms, 0668ms total)
T3648 000:855 JLINK_WriteReg(MSP, 0x20001000)  returns 0x00 (0000ms, 0668ms total)
T3648 000:855 JLINK_WriteReg(PSP, 0x20001000)  returns 0x00 (0000ms, 0668ms total)
T3648 000:855 JLINK_WriteReg(CFBP, 0x00000000)  returns 0x00 (0000ms, 0668ms total)
T3648 000:855 JLINK_SetBPEx(Addr = 0x20000000, Type = 0xFFFFFFF2)  returns 0x00000002 (0000ms, 0668ms total)
T3648 000:855 JLINK_Go() (0001ms, 0669ms total)
T3648 000:856 JLINK_IsHalted() -- CPU_ReadMem(2 bytes @ 0x20000000)  returns TRUE (0003ms, 0672ms total)
T3648 000:859 JLINK_ReadReg(R15 (PC))  returns 0x20000000 (0000ms, 0669ms total)
T3648 000:859 JLINK_ClrBPEx(BPHandle = 0x00000002)  returns 0x00 (0000ms, 0669ms total)
T3648 000:859 JLINK_ReadReg(R0)  returns 0x00000001 (0000ms, 0669ms total)
T3648 000:859 JLINK_WriteReg(R0, 0x08000000)  returns 0x00 (0000ms, 0669ms total)
T3648 000:859 JLINK_WriteReg(R1, 0x00004000)  returns 0x00 (0000ms, 0669ms total)
T3648 000:859 JLINK_WriteReg(R2, 0x000000FF)  returns 0x00 (0000ms, 0669ms total)
T3648 000:859 JLINK_WriteReg(R3, 0x00000000)  returns 0x00 (0000ms, 0669ms total)
T3648 000:859 JLINK_WriteReg(R4, 0x00000000)  returns 0x00 (0000ms, 0669ms total)
T3648 000:859 JLINK_WriteReg(R5, 0x00000000)  returns 0x00 (0000ms, 0669ms total)
T3648 000:859 JLINK_WriteReg(R6, 0x00000000)  returns 0x00 (0000ms, 0669ms total)
T3648 000:859 JLINK_WriteReg(R7, 0x00000000)  returns 0x00 (0000ms, 0669ms total)
T3648 000:859 JLINK_WriteReg(R8, 0x00000000)  returns 0x00 (0000ms, 0669ms total)
T3648 000:859 JLINK_WriteReg(R9, 0x2000017C)  returns 0x00 (0000ms, 0669ms total)
T3648 000:859 JLINK_WriteReg(R10, 0x00000000)  returns 0x00 (0000ms, 0669ms total)
T3648 000:859 JLINK_WriteReg(R11, 0x00000000)  returns 0x00 (0000ms, 0669ms total)
T3648 000:859 JLINK_WriteReg(R12, 0x00000000)  returns 0x00 (0000ms, 0669ms total)
T3648 000:859 JLINK_WriteReg(R13 (SP), 0x20001000)  returns 0x00 (0000ms, 0669ms total)
T3648 000:859 JLINK_WriteReg(R14, 0x20000001)  returns 0x00 (0000ms, 0669ms total)
T3648 000:859 JLINK_WriteReg(R15 (PC), 0x200000BC)  returns 0x00 (0000ms, 0669ms total)
T3648 000:859 JLINK_WriteReg(XPSR, 0x01000000)  returns 0x00 (0000ms, 0669ms total)
T3648 000:859 JLINK_WriteReg(MSP, 0x20001000)  returns 0x00 (0000ms, 0669ms total)
T3648 000:859 JLINK_WriteReg(PSP, 0x20001000)  returns 0x00 (0000ms, 0669ms total)
T3648 000:859 JLINK_WriteReg(CFBP, 0x00000000)  returns 0x00 (0000ms, 0669ms total)
T3648 000:859 JLINK_SetBPEx(Addr = 0x20000000, Type = 0xFFFFFFF2)  returns 0x00000003 (0000ms, 0669ms total)
T3648 000:859 JLINK_Go() (0001ms, 0670ms total)
T3648 000:860 JLINK_IsHalted()  returns FALSE (0001ms, 0671ms total)
T3648 000:986 JLINK_IsHalted()  returns FALSE (0000ms, 0670ms total)
T3648 001:003 JLINK_IsHalted()  returns FALSE (0000ms, 0670ms total)
T3648 001:005 JLINK_IsHalted()  returns FALSE (0000ms, 0670ms total)
T3648 001:013 JLINK_IsHalted()  returns FALSE (0000ms, 0670ms total)
T3648 001:016 JLINK_IsHalted()  returns FALSE (0001ms, 0671ms total)
T3648 001:018 JLINK_IsHalted()  returns FALSE (0000ms, 0670ms total)
T3648 001:020 JLINK_IsHalted()  returns FALSE (0000ms, 0670ms total)
T3648 001:022 JLINK_IsHalted()  returns FALSE (0000ms, 0670ms total)
T3648 001:032 JLINK_IsHalted()  returns FALSE (0000ms, 0670ms total)
T3648 001:033 JLINK_IsHalted()  returns FALSE (0000ms, 0670ms total)
T3648 001:035 JLINK_IsHalted()  returns FALSE (0000ms, 0670ms total)
T3648 001:037 JLINK_IsHalted()  returns FALSE (0000ms, 0670ms total)
T3648 001:045 JLINK_IsHalted()  returns FALSE (0000ms, 0670ms total)
T3648 001:047 JLINK_IsHalted()  returns FALSE (0000ms, 0670ms total)
T3648 001:048 JLINK_IsHalted()  returns FALSE (0000ms, 0670ms total)
T3648 001:050 JLINK_IsHalted()  returns FALSE (0000ms, 0670ms total)
T3648 001:051 JLINK_IsHalted()  returns FALSE (0000ms, 0670ms total)
T3648 001:059 JLINK_IsHalted()  returns FALSE (0000ms, 0670ms total)
T3648 001:062 JLINK_IsHalted()  returns FALSE (0000ms, 0670ms total)
T3648 001:064 JLINK_IsHalted()  returns FALSE (0000ms, 0670ms total)
T3648 001:066 JLINK_IsHalted()  returns FALSE (0000ms, 0670ms total)
T3648 001:069 JLINK_IsHalted()  returns FALSE (0000ms, 0670ms total)
T3648 001:075 JLINK_IsHalted()  returns FALSE (0000ms, 0670ms total)
T3648 001:078 JLINK_IsHalted()  returns FALSE (0000ms, 0670ms total)
T3648 001:080 JLINK_IsHalted()  returns FALSE (0000ms, 0670ms total)
T3648 001:082 JLINK_IsHalted()  returns FALSE (0000ms, 0670ms total)
T3648 001:083 JLINK_IsHalted()  returns FALSE (0000ms, 0670ms total)
T3648 001:087 JLINK_IsHalted()  returns FALSE (0000ms, 0670ms total)
T3648 001:089 JLINK_IsHalted()  returns FALSE (0000ms, 0670ms total)
T3648 001:106 JLINK_IsHalted()  returns FALSE (0000ms, 0670ms total)
T3648 001:108 JLINK_IsHalted()  returns FALSE (0000ms, 0670ms total)
T3648 001:111 JLINK_IsHalted()  returns FALSE (0000ms, 0670ms total)
T3648 001:113 JLINK_IsHalted()  returns FALSE (0000ms, 0670ms total)
T3648 001:114 JLINK_IsHalted()  returns FALSE (0000ms, 0670ms total)
T3648 001:124 JLINK_IsHalted()  returns FALSE (0000ms, 0670ms total)
T3648 001:126 JLINK_IsHalted()  returns FALSE (0000ms, 0670ms total)
T3648 001:127 JLINK_IsHalted()  returns FALSE (0000ms, 0670ms total)
T3648 001:128 JLINK_IsHalted()  returns FALSE (0000ms, 0670ms total)
T3648 001:130 JLINK_IsHalted()  returns FALSE (0000ms, 0670ms total)
T3648 001:139 JLINK_IsHalted()  returns FALSE (0000ms, 0670ms total)
T3648 001:142 JLINK_IsHalted()  returns FALSE (0000ms, 0670ms total)
T3648 001:144 JLINK_IsHalted()  returns FALSE (0000ms, 0670ms total)
T3648 001:146 JLINK_IsHalted()  returns FALSE (0000ms, 0670ms total)
T3648 001:148 JLINK_IsHalted()  returns FALSE (0000ms, 0670ms total)
T3648 001:158 JLINK_IsHalted()  returns FALSE (0000ms, 0670ms total)
T3648 001:160 JLINK_IsHalted()  returns FALSE (0000ms, 0670ms total)
T3648 001:161 JLINK_IsHalted()  returns FALSE (0000ms, 0670ms total)
T3648 001:163 JLINK_IsHalted()  returns FALSE (0000ms, 0670ms total)
T3648 001:172 JLINK_IsHalted()  returns FALSE (0000ms, 0670ms total)
T3648 001:175 JLINK_IsHalted()  returns FALSE (0000ms, 0670ms total)
T3648 001:177 JLINK_IsHalted()  returns FALSE (0000ms, 0670ms total)
T3648 001:184 JLINK_IsHalted()  returns FALSE (0000ms, 0670ms total)
T3648 001:186 JLINK_IsHalted()  returns FALSE (0000ms, 0670ms total)
T3648 001:189 JLINK_IsHalted()  returns FALSE (0000ms, 0670ms total)
T3648 001:191 JLINK_IsHalted()  returns FALSE (0000ms, 0670ms total)
T3648 001:192 JLINK_IsHalted()  returns FALSE (0000ms, 0670ms total)
T3648 001:194 JLINK_IsHalted()  returns FALSE (0000ms, 0670ms total)
T3648 001:206 JLINK_IsHalted() -- CPU_ReadMem(2 bytes @ 0x20000000)  returns TRUE (0003ms, 0673ms total)
T3648 001:209 JLINK_ReadReg(R15 (PC))  returns 0x20000000 (0000ms, 0670ms total)
T3648 001:209 JLINK_ClrBPEx(BPHandle = 0x00000003)  returns 0x00 (0000ms, 0670ms total)
T3648 001:209 JLINK_ReadReg(R0)  returns 0x00000000 (0000ms, 0670ms total)
T3648 001:210 JLINK_WriteReg(R0, 0x00000001)  returns 0x00 (0000ms, 0670ms total)
T3648 001:210 JLINK_WriteReg(R1, 0x00004000)  returns 0x00 (0000ms, 0670ms total)
T3648 001:210 JLINK_WriteReg(R2, 0x000000FF)  returns 0x00 (0000ms, 0670ms total)
T3648 001:210 JLINK_WriteReg(R3, 0x00000000)  returns 0x00 (0000ms, 0670ms total)
T3648 001:210 JLINK_WriteReg(R4, 0x00000000)  returns 0x00 (0000ms, 0670ms total)
T3648 001:210 JLINK_WriteReg(R5, 0x00000000)  returns 0x00 (0000ms, 0670ms total)
T3648 001:210 JLINK_WriteReg(R6, 0x00000000)  returns 0x00 (0000ms, 0670ms total)
T3648 001:210 JLINK_WriteReg(R7, 0x00000000)  returns 0x00 (0000ms, 0670ms total)
T3648 001:210 JLINK_WriteReg(R8, 0x00000000)  returns 0x00 (0000ms, 0670ms total)
T3648 001:210 JLINK_WriteReg(R9, 0x2000017C)  returns 0x00 (0000ms, 0670ms total)
T3648 001:210 JLINK_WriteReg(R10, 0x00000000)  returns 0x00 (0000ms, 0670ms total)
T3648 001:210 JLINK_WriteReg(R11, 0x00000000)  returns 0x00 (0000ms, 0670ms total)
T3648 001:210 JLINK_WriteReg(R12, 0x00000000)  returns 0x00 (0000ms, 0670ms total)
T3648 001:210 JLINK_WriteReg(R13 (SP), 0x20001000)  returns 0x00 (0000ms, 0670ms total)
T3648 001:210 JLINK_WriteReg(R14, 0x20000001)  returns 0x00 (0000ms, 0670ms total)
T3648 001:210 JLINK_WriteReg(R15 (PC), 0x20000082)  returns 0x00 (0000ms, 0670ms total)
T3648 001:210 JLINK_WriteReg(XPSR, 0x01000000)  returns 0x00 (0000ms, 0670ms total)
T3648 001:210 JLINK_WriteReg(MSP, 0x20001000)  returns 0x00 (0000ms, 0670ms total)
T3648 001:210 JLINK_WriteReg(PSP, 0x20001000)  returns 0x00 (0000ms, 0670ms total)
T3648 001:210 JLINK_WriteReg(CFBP, 0x00000000)  returns 0x00 (0000ms, 0670ms total)
T3648 001:210 JLINK_SetBPEx(Addr = 0x20000000, Type = 0xFFFFFFF2)  returns 0x00000004 (0000ms, 0670ms total)
T3648 001:210 JLINK_Go() (0001ms, 0671ms total)
T3648 001:211 JLINK_IsHalted() -- CPU_ReadMem(2 bytes @ 0x20000000)  returns TRUE (0003ms, 0674ms total)
T3648 001:214 JLINK_ReadReg(R15 (PC))  returns 0x20000000 (0000ms, 0671ms total)
T3648 001:214 JLINK_ClrBPEx(BPHandle = 0x00000004)  returns 0x00 (0000ms, 0671ms total)
T3648 001:214 JLINK_ReadReg(R0)  returns 0x00000000 (0000ms, 0671ms total)
T3648 001:294 JLINK_WriteMem(0x20000000, 0x0180 Bytes, ...) - Data: 00 BE 0A E0 0D 78 2D 06 68 40 08 24 40 00 00 D3 ... -- CPU_WriteMem(384 bytes @ 0x20000000)  returns 0x180 (0003ms, 0674ms total)
T3648 001:297 JLINK_WriteReg(R0, 0x08000000)  returns 0x00 (0000ms, 0674ms total)
T3648 001:297 JLINK_WriteReg(R1, 0x007A1200)  returns 0x00 (0000ms, 0674ms total)
T3648 001:297 JLINK_WriteReg(R2, 0x00000002)  returns 0x00 (0000ms, 0674ms total)
T3648 001:297 JLINK_WriteReg(R3, 0x00000000)  returns 0x00 (0000ms, 0674ms total)
T3648 001:297 JLINK_WriteReg(R4, 0x00000000)  returns 0x00 (0001ms, 0675ms total)
T3648 001:298 JLINK_WriteReg(R5, 0x00000000)  returns 0x00 (0000ms, 0675ms total)
T3648 001:298 JLINK_WriteReg(R6, 0x00000000)  returns 0x00 (0000ms, 0675ms total)
T3648 001:298 JLINK_WriteReg(R7, 0x00000000)  returns 0x00 (0000ms, 0675ms total)
T3648 001:298 JLINK_WriteReg(R8, 0x00000000)  returns 0x00 (0000ms, 0675ms total)
T3648 001:298 JLINK_WriteReg(R9, 0x2000017C)  returns 0x00 (0000ms, 0675ms total)
T3648 001:298 JLINK_WriteReg(R10, 0x00000000)  returns 0x00 (0000ms, 0675ms total)
T3648 001:298 JLINK_WriteReg(R11, 0x00000000)  returns 0x00 (0000ms, 0675ms total)
T3648 001:298 JLINK_WriteReg(R12, 0x00000000)  returns 0x00 (0000ms, 0675ms total)
T3648 001:298 JLINK_WriteReg(R13 (SP), 0x20001000)  returns 0x00 (0000ms, 0675ms total)
T3648 001:298 JLINK_WriteReg(R14, 0x20000001)  returns 0x00 (0000ms, 0675ms total)
T3648 001:298 JLINK_WriteReg(R15 (PC), 0x20000054)  returns 0x00 (0000ms, 0675ms total)
T3648 001:298 JLINK_WriteReg(XPSR, 0x01000000)  returns 0x00 (0000ms, 0675ms total)
T3648 001:298 JLINK_WriteReg(MSP, 0x20001000)  returns 0x00 (0000ms, 0675ms total)
T3648 001:298 JLINK_WriteReg(PSP, 0x20001000)  returns 0x00 (0000ms, 0675ms total)
T3648 001:298 JLINK_WriteReg(CFBP, 0x00000000)  returns 0x00 (0000ms, 0675ms total)
T3648 001:298 JLINK_SetBPEx(Addr = 0x20000000, Type = 0xFFFFFFF2) -- CPU_ReadMem(2 bytes @ 0x20000000)  returns 0x00000005 (0001ms, 0676ms total)
T3648 001:299 JLINK_Go() -- CPU_WriteMem(2 bytes @ 0x20000000) (0002ms, 0678ms total)
T3648 001:301 JLINK_IsHalted() -- CPU_ReadMem(2 bytes @ 0x20000000)  returns TRUE (0003ms, 0681ms total)
T3648 001:304 JLINK_ReadReg(R15 (PC))  returns 0x20000000 (0000ms, 0678ms total)
T3648 001:304 JLINK_ClrBPEx(BPHandle = 0x00000005)  returns 0x00 (0000ms, 0678ms total)
T3648 001:304 JLINK_ReadReg(R0)  returns 0x00000000 (0000ms, 0678ms total)
T3648 001:308 JLINK_WriteMem(0x20000180, 0x0400 Bytes, ...) - Data: 58 07 00 20 39 08 00 08 9D 02 00 08 9F 02 00 08 ... -- CPU_WriteMem(1024 bytes @ 0x20000180)  returns 0x400 (0007ms, 0685ms total)
T3648 001:315 JLINK_WriteReg(R0, 0x08000000)  returns 0x00 (0000ms, 0685ms total)
T3648 001:315 JLINK_WriteReg(R1, 0x00000400)  returns 0x00 (0000ms, 0685ms total)
T3648 001:315 JLINK_WriteReg(R2, 0x20000180)  returns 0x00 (0000ms, 0685ms total)
T3648 001:315 JLINK_WriteReg(R3, 0x00000000)  returns 0x00 (0000ms, 0685ms total)
T3648 001:315 JLINK_WriteReg(R4, 0x00000000)  returns 0x00 (0000ms, 0685ms total)
T3648 001:315 JLINK_WriteReg(R5, 0x00000000)  returns 0x00 (0000ms, 0685ms total)
T3648 001:315 JLINK_WriteReg(R6, 0x00000000)  returns 0x00 (0000ms, 0685ms total)
T3648 001:315 JLINK_WriteReg(R7, 0x00000000)  returns 0x00 (0000ms, 0685ms total)
T3648 001:315 JLINK_WriteReg(R8, 0x00000000)  returns 0x00 (0000ms, 0685ms total)
T3648 001:315 JLINK_WriteReg(R9, 0x2000017C)  returns 0x00 (0000ms, 0685ms total)
T3648 001:315 JLINK_WriteReg(R10, 0x00000000)  returns 0x00 (0000ms, 0685ms total)
T3648 001:315 JLINK_WriteReg(R11, 0x00000000)  returns 0x00 (0000ms, 0685ms total)
T3648 001:315 JLINK_WriteReg(R12, 0x00000000)  returns 0x00 (0001ms, 0686ms total)
T3648 001:316 JLINK_WriteReg(R13 (SP), 0x20001000)  returns 0x00 (0000ms, 0686ms total)
T3648 001:316 JLINK_WriteReg(R14, 0x20000001)  returns 0x00 (0000ms, 0686ms total)
T3648 001:316 JLINK_WriteReg(R15 (PC), 0x20000108)  returns 0x00 (0000ms, 0686ms total)
T3648 001:316 JLINK_WriteReg(XPSR, 0x01000000)  returns 0x00 (0000ms, 0686ms total)
T3648 001:316 JLINK_WriteReg(MSP, 0x20001000)  returns 0x00 (0000ms, 0686ms total)
T3648 001:316 JLINK_WriteReg(PSP, 0x20001000)  returns 0x00 (0000ms, 0686ms total)
T3648 001:316 JLINK_WriteReg(CFBP, 0x00000000)  returns 0x00 (0000ms, 0686ms total)
T3648 001:316 JLINK_SetBPEx(Addr = 0x20000000, Type = 0xFFFFFFF2)  returns 0x00000006 (0000ms, 0686ms total)
T3648 001:316 JLINK_Go() (0002ms, 0688ms total)
T3648 001:318 JLINK_IsHalted()  returns FALSE (0000ms, 0688ms total)
T3648 001:404 JLINK_IsHalted() -- CPU_ReadMem(2 bytes @ 0x20000000)  returns TRUE (0002ms, 0690ms total)
T3648 001:406 JLINK_ReadReg(R15 (PC))  returns 0x20000000 (0000ms, 0688ms total)
T3648 001:406 JLINK_ClrBPEx(BPHandle = 0x00000006)  returns 0x00 (0000ms, 0688ms total)
T3648 001:406 JLINK_ReadReg(R0)  returns 0x00000000 (0000ms, 0688ms total)
T3648 001:407 JLINK_WriteMem(0x20000180, 0x0400 Bytes, ...) - Data: 0C 00 20 B1 04 28 06 D0 08 28 34 D1 07 E0 2A 4D ... -- CPU_WriteMem(1024 bytes @ 0x20000180)  returns 0x400 (0006ms, 0694ms total)
T3648 001:413 JLINK_WriteReg(R0, 0x08000400)  returns 0x00 (0000ms, 0694ms total)
T3648 001:413 JLINK_WriteReg(R1, 0x00000400)  returns 0x00 (0000ms, 0694ms total)
T3648 001:413 JLINK_WriteReg(R2, 0x20000180)  returns 0x00 (0000ms, 0694ms total)
T3648 001:413 JLINK_WriteReg(R3, 0x00000000)  returns 0x00 (0000ms, 0694ms total)
T3648 001:413 JLINK_WriteReg(R4, 0x00000000)  returns 0x00 (0000ms, 0694ms total)
T3648 001:413 JLINK_WriteReg(R5, 0x00000000)  returns 0x00 (0000ms, 0694ms total)
T3648 001:413 JLINK_WriteReg(R6, 0x00000000)  returns 0x00 (0000ms, 0694ms total)
T3648 001:413 JLINK_WriteReg(R7, 0x00000000)  returns 0x00 (0000ms, 0694ms total)
T3648 001:413 JLINK_WriteReg(R8, 0x00000000)  returns 0x00 (0000ms, 0694ms total)
T3648 001:413 JLINK_WriteReg(R9, 0x2000017C)  returns 0x00 (0000ms, 0694ms total)
T3648 001:413 JLINK_WriteReg(R10, 0x00000000)  returns 0x00 (0000ms, 0694ms total)
T3648 001:413 JLINK_WriteReg(R11, 0x00000000)  returns 0x00 (0000ms, 0694ms total)
T3648 001:413 JLINK_WriteReg(R12, 0x00000000)  returns 0x00 (0000ms, 0694ms total)
T3648 001:413 JLINK_WriteReg(R13 (SP), 0x20001000)  returns 0x00 (0000ms, 0694ms total)
T3648 001:413 JLINK_WriteReg(R14, 0x20000001)  returns 0x00 (0001ms, 0695ms total)
T3648 001:414 JLINK_WriteReg(R15 (PC), 0x20000108)  returns 0x00 (0000ms, 0695ms total)
T3648 001:414 JLINK_WriteReg(XPSR, 0x01000000)  returns 0x00 (0000ms, 0695ms total)
T3648 001:414 JLINK_WriteReg(MSP, 0x20001000)  returns 0x00 (0000ms, 0695ms total)
T3648 001:414 JLINK_WriteReg(PSP, 0x20001000)  returns 0x00 (0000ms, 0695ms total)
T3648 001:414 JLINK_WriteReg(CFBP, 0x00000000)  returns 0x00 (0000ms, 0695ms total)
T3648 001:414 JLINK_SetBPEx(Addr = 0x20000000, Type = 0xFFFFFFF2)  returns 0x00000007 (0000ms, 0695ms total)
T3648 001:414 JLINK_Go() (0001ms, 0696ms total)
T3648 001:415 JLINK_IsHalted()  returns FALSE (0000ms, 0696ms total)
T3648 001:423 JLINK_IsHalted() -- CPU_ReadMem(2 bytes @ 0x20000000)  returns TRUE (0003ms, 0699ms total)
T3648 001:426 JLINK_ReadReg(R15 (PC))  returns 0x20000000 (0000ms, 0696ms total)
T3648 001:426 JLINK_ClrBPEx(BPHandle = 0x00000007)  returns 0x00 (0000ms, 0696ms total)
T3648 001:426 JLINK_ReadReg(R0)  returns 0x00000000 (0000ms, 0696ms total)
T3648 001:427 JLINK_WriteMem(0x20000180, 0x0400 Bytes, ...) - Data: 10 E0 0B 48 00 88 C0 F3 0D 00 0A 49 0C 54 08 48 ... -- CPU_WriteMem(1024 bytes @ 0x20000180)  returns 0x400 (0006ms, 0702ms total)
T3648 001:433 JLINK_WriteReg(R0, 0x08000800)  returns 0x00 (0000ms, 0702ms total)
T3648 001:433 JLINK_WriteReg(R1, 0x00000400)  returns 0x00 (0000ms, 0702ms total)
T3648 001:433 JLINK_WriteReg(R2, 0x20000180)  returns 0x00 (0000ms, 0702ms total)
T3648 001:433 JLINK_WriteReg(R3, 0x00000000)  returns 0x00 (0000ms, 0702ms total)
T3648 001:433 JLINK_WriteReg(R4, 0x00000000)  returns 0x00 (0000ms, 0702ms total)
T3648 001:433 JLINK_WriteReg(R5, 0x00000000)  returns 0x00 (0000ms, 0702ms total)
T3648 001:433 JLINK_WriteReg(R6, 0x00000000)  returns 0x00 (0000ms, 0702ms total)
T3648 001:433 JLINK_WriteReg(R7, 0x00000000)  returns 0x00 (0000ms, 0702ms total)
T3648 001:433 JLINK_WriteReg(R8, 0x00000000)  returns 0x00 (0000ms, 0702ms total)
T3648 001:433 JLINK_WriteReg(R9, 0x2000017C)  returns 0x00 (0000ms, 0702ms total)
T3648 001:433 JLINK_WriteReg(R10, 0x00000000)  returns 0x00 (0000ms, 0702ms total)
T3648 001:433 JLINK_WriteReg(R11, 0x00000000)  returns 0x00 (0000ms, 0702ms total)
T3648 001:433 JLINK_WriteReg(R12, 0x00000000)  returns 0x00 (0000ms, 0702ms total)
T3648 001:433 JLINK_WriteReg(R13 (SP), 0x20001000)  returns 0x00 (0000ms, 0702ms total)
T3648 001:433 JLINK_WriteReg(R14, 0x20000001)  returns 0x00 (0000ms, 0702ms total)
T3648 001:433 JLINK_WriteReg(R15 (PC), 0x20000108)  returns 0x00 (0000ms, 0702ms total)
T3648 001:433 JLINK_WriteReg(XPSR, 0x01000000)  returns 0x00 (0000ms, 0702ms total)
T3648 001:433 JLINK_WriteReg(MSP, 0x20001000)  returns 0x00 (0001ms, 0703ms total)
T3648 001:434 JLINK_WriteReg(PSP, 0x20001000)  returns 0x00 (0000ms, 0703ms total)
T3648 001:434 JLINK_WriteReg(CFBP, 0x00000000)  returns 0x00 (0000ms, 0703ms total)
T3648 001:434 JLINK_SetBPEx(Addr = 0x20000000, Type = 0xFFFFFFF2)  returns 0x00000008 (0000ms, 0703ms total)
T3648 001:434 JLINK_Go() (0001ms, 0704ms total)
T3648 001:435 JLINK_IsHalted()  returns FALSE (0000ms, 0704ms total)
T3648 001:441 JLINK_IsHalted() -- CPU_ReadMem(2 bytes @ 0x20000000)  returns TRUE (0003ms, 0707ms total)
T3648 001:444 JLINK_ReadReg(R15 (PC))  returns 0x20000000 (0000ms, 0704ms total)
T3648 001:444 JLINK_ClrBPEx(BPHandle = 0x00000008)  returns 0x00 (0000ms, 0704ms total)
T3648 001:444 JLINK_ReadReg(R0)  returns 0x00000000 (0000ms, 0704ms total)
T3648 001:446 JLINK_WriteMem(0x20000180, 0x0400 Bytes, ...) - Data: 5A 4A C2 F8 04 13 70 47 F0 B5 04 46 15 46 00 20 ... -- CPU_WriteMem(1024 bytes @ 0x20000180)  returns 0x400 (0007ms, 0711ms total)
T3648 001:453 JLINK_WriteReg(R0, 0x08000C00)  returns 0x00 (0000ms, 0711ms total)
T3648 001:453 JLINK_WriteReg(R1, 0x00000400)  returns 0x00 (0000ms, 0711ms total)
T3648 001:453 JLINK_WriteReg(R2, 0x20000180)  returns 0x00 (0000ms, 0711ms total)
T3648 001:453 JLINK_WriteReg(R3, 0x00000000)  returns 0x00 (0000ms, 0711ms total)
T3648 001:453 JLINK_WriteReg(R4, 0x00000000)  returns 0x00 (0000ms, 0711ms total)
T3648 001:453 JLINK_WriteReg(R5, 0x00000000)  returns 0x00 (0000ms, 0711ms total)
T3648 001:453 JLINK_WriteReg(R6, 0x00000000)  returns 0x00 (0000ms, 0711ms total)
T3648 001:453 JLINK_WriteReg(R7, 0x00000000)  returns 0x00 (0000ms, 0711ms total)
T3648 001:453 JLINK_WriteReg(R8, 0x00000000)  returns 0x00 (0000ms, 0711ms total)
T3648 001:453 JLINK_WriteReg(R9, 0x2000017C)  returns 0x00 (0000ms, 0711ms total)
T3648 001:453 JLINK_WriteReg(R10, 0x00000000)  returns 0x00 (0000ms, 0711ms total)
T3648 001:453 JLINK_WriteReg(R11, 0x00000000)  returns 0x00 (0000ms, 0711ms total)
T3648 001:453 JLINK_WriteReg(R12, 0x00000000)  returns 0x00 (0000ms, 0711ms total)
T3648 001:453 JLINK_WriteReg(R13 (SP), 0x20001000)  returns 0x00 (0000ms, 0711ms total)
T3648 001:453 JLINK_WriteReg(R14, 0x20000001)  returns 0x00 (0000ms, 0711ms total)
T3648 001:453 JLINK_WriteReg(R15 (PC), 0x20000108)  returns 0x00 (0000ms, 0711ms total)
T3648 001:453 JLINK_WriteReg(XPSR, 0x01000000)  returns 0x00 (0000ms, 0711ms total)
T3648 001:453 JLINK_WriteReg(MSP, 0x20001000)  returns 0x00 (0000ms, 0711ms total)
T3648 001:453 JLINK_WriteReg(PSP, 0x20001000)  returns 0x00 (0000ms, 0711ms total)
T3648 001:453 JLINK_WriteReg(CFBP, 0x00000000)  returns 0x00 (0000ms, 0711ms total)
T3648 001:453 JLINK_SetBPEx(Addr = 0x20000000, Type = 0xFFFFFFF2)  returns 0x00000009 (0000ms, 0711ms total)
T3648 001:453 JLINK_Go() (0002ms, 0713ms total)
T3648 001:455 JLINK_IsHalted()  returns FALSE (0000ms, 0713ms total)
T3648 001:466 JLINK_IsHalted() -- CPU_ReadMem(2 bytes @ 0x20000000)  returns TRUE (0003ms, 0716ms total)
T3648 001:469 JLINK_ReadReg(R15 (PC))  returns 0x20000000 (0000ms, 0713ms total)
T3648 001:469 JLINK_ClrBPEx(BPHandle = 0x00000009)  returns 0x00 (0000ms, 0713ms total)
T3648 001:469 JLINK_ReadReg(R0)  returns 0x00000000 (0000ms, 0713ms total)
T3648 001:469 JLINK_WriteMem(0x20000180, 0x0400 Bytes, ...) - Data: CF 10 00 F1 20 06 46 F8 27 50 CE 10 00 F1 20 05 ... -- CPU_WriteMem(1024 bytes @ 0x20000180)  returns 0x400 (0007ms, 0720ms total)
T3648 001:476 JLINK_WriteReg(R0, 0x08001000)  returns 0x00 (0000ms, 0720ms total)
T3648 001:476 JLINK_WriteReg(R1, 0x00000400)  returns 0x00 (0000ms, 0720ms total)
T3648 001:476 JLINK_WriteReg(R2, 0x20000180)  returns 0x00 (0000ms, 0720ms total)
T3648 001:476 JLINK_WriteReg(R3, 0x00000000)  returns 0x00 (0000ms, 0720ms total)
T3648 001:476 JLINK_WriteReg(R4, 0x00000000)  returns 0x00 (0000ms, 0720ms total)
T3648 001:476 JLINK_WriteReg(R5, 0x00000000)  returns 0x00 (0000ms, 0720ms total)
T3648 001:476 JLINK_WriteReg(R6, 0x00000000)  returns 0x00 (0000ms, 0720ms total)
T3648 001:476 JLINK_WriteReg(R7, 0x00000000)  returns 0x00 (0000ms, 0720ms total)
T3648 001:476 JLINK_WriteReg(R8, 0x00000000)  returns 0x00 (0000ms, 0720ms total)
T3648 001:476 JLINK_WriteReg(R9, 0x2000017C)  returns 0x00 (0000ms, 0720ms total)
T3648 001:476 JLINK_WriteReg(R10, 0x00000000)  returns 0x00 (0000ms, 0720ms total)
T3648 001:476 JLINK_WriteReg(R11, 0x00000000)  returns 0x00 (0000ms, 0720ms total)
T3648 001:476 JLINK_WriteReg(R12, 0x00000000)  returns 0x00 (0000ms, 0720ms total)
T3648 001:476 JLINK_WriteReg(R13 (SP), 0x20001000)  returns 0x00 (0000ms, 0720ms total)
T3648 001:476 JLINK_WriteReg(R14, 0x20000001)  returns 0x00 (0000ms, 0720ms total)
T3648 001:476 JLINK_WriteReg(R15 (PC), 0x20000108)  returns 0x00 (0000ms, 0720ms total)
T3648 001:476 JLINK_WriteReg(XPSR, 0x01000000)  returns 0x00 (0000ms, 0720ms total)
T3648 001:476 JLINK_WriteReg(MSP, 0x20001000)  returns 0x00 (0000ms, 0720ms total)
T3648 001:476 JLINK_WriteReg(PSP, 0x20001000)  returns 0x00 (0000ms, 0720ms total)
T3648 001:476 JLINK_WriteReg(CFBP, 0x00000000)  returns 0x00 (0000ms, 0720ms total)
T3648 001:476 JLINK_SetBPEx(Addr = 0x20000000, Type = 0xFFFFFFF2)  returns 0x0000000A (0000ms, 0720ms total)
T3648 001:476 JLINK_Go() (0001ms, 0721ms total)
T3648 001:477 JLINK_IsHalted()  returns FALSE (0001ms, 0722ms total)
T3648 001:502 JLINK_IsHalted() -- CPU_ReadMem(2 bytes @ 0x20000000)  returns TRUE (0003ms, 0724ms total)
T3648 001:505 JLINK_ReadReg(R15 (PC))  returns 0x20000000 (0000ms, 0721ms total)
T3648 001:505 JLINK_ClrBPEx(BPHandle = 0x0000000A)  returns 0x00 (0000ms, 0721ms total)
T3648 001:505 JLINK_ReadReg(R0)  returns 0x00000000 (0000ms, 0721ms total)
T3648 001:508 JLINK_WriteMem(0x20000180, 0x0400 Bytes, ...) - Data: 08 60 70 47 39 B1 0C 4A 30 32 12 68 02 43 0A 4B ... -- CPU_WriteMem(1024 bytes @ 0x20000180)  returns 0x400 (0006ms, 0727ms total)
T3648 001:514 JLINK_WriteReg(R0, 0x08001400)  returns 0x00 (0000ms, 0727ms total)
T3648 001:514 JLINK_WriteReg(R1, 0x00000400)  returns 0x00 (0000ms, 0727ms total)
T3648 001:514 JLINK_WriteReg(R2, 0x20000180)  returns 0x00 (0000ms, 0727ms total)
T3648 001:514 JLINK_WriteReg(R3, 0x00000000)  returns 0x00 (0000ms, 0727ms total)
T3648 001:514 JLINK_WriteReg(R4, 0x00000000)  returns 0x00 (0000ms, 0727ms total)
T3648 001:514 JLINK_WriteReg(R5, 0x00000000)  returns 0x00 (0000ms, 0727ms total)
T3648 001:514 JLINK_WriteReg(R6, 0x00000000)  returns 0x00 (0000ms, 0727ms total)
T3648 001:514 JLINK_WriteReg(R7, 0x00000000)  returns 0x00 (0000ms, 0727ms total)
T3648 001:514 JLINK_WriteReg(R8, 0x00000000)  returns 0x00 (0000ms, 0727ms total)
T3648 001:514 JLINK_WriteReg(R9, 0x2000017C)  returns 0x00 (0000ms, 0727ms total)
T3648 001:514 JLINK_WriteReg(R10, 0x00000000)  returns 0x00 (0000ms, 0727ms total)
T3648 001:514 JLINK_WriteReg(R11, 0x00000000)  returns 0x00 (0000ms, 0727ms total)
T3648 001:514 JLINK_WriteReg(R12, 0x00000000)  returns 0x00 (0000ms, 0727ms total)
T3648 001:514 JLINK_WriteReg(R13 (SP), 0x20001000)  returns 0x00 (0000ms, 0727ms total)
T3648 001:514 JLINK_WriteReg(R14, 0x20000001)  returns 0x00 (0000ms, 0727ms total)
T3648 001:514 JLINK_WriteReg(R15 (PC), 0x20000108)  returns 0x00 (0000ms, 0727ms total)
T3648 001:514 JLINK_WriteReg(XPSR, 0x01000000)  returns 0x00 (0000ms, 0727ms total)
T3648 001:514 JLINK_WriteReg(MSP, 0x20001000)  returns 0x00 (0000ms, 0727ms total)
T3648 001:514 JLINK_WriteReg(PSP, 0x20001000)  returns 0x00 (0000ms, 0727ms total)
T3648 001:514 JLINK_WriteReg(CFBP, 0x00000000)  returns 0x00 (0000ms, 0727ms total)
T3648 001:514 JLINK_SetBPEx(Addr = 0x20000000, Type = 0xFFFFFFF2)  returns 0x0000000B (0000ms, 0727ms total)
T3648 001:514 JLINK_Go() (0002ms, 0729ms total)
T3648 001:516 JLINK_IsHalted()  returns FALSE (0000ms, 0729ms total)
T3648 001:522 JLINK_IsHalted() -- CPU_ReadMem(2 bytes @ 0x20000000)  returns TRUE (0002ms, 0731ms total)
T3648 001:524 JLINK_ReadReg(R15 (PC))  returns 0x20000000 (0000ms, 0729ms total)
T3648 001:524 JLINK_ClrBPEx(BPHandle = 0x0000000B)  returns 0x00 (0000ms, 0729ms total)
T3648 001:524 JLINK_ReadReg(R0)  returns 0x00000000 (0000ms, 0729ms total)
T3648 001:526 JLINK_WriteMem(0x20000180, 0x0400 Bytes, ...) - Data: B0 FB F1 F7 64 20 B7 FB F0 F0 04 01 20 09 64 21 ... -- CPU_WriteMem(1024 bytes @ 0x20000180)  returns 0x400 (0007ms, 0736ms total)
T3648 001:533 JLINK_WriteReg(R0, 0x08001800)  returns 0x00 (0000ms, 0736ms total)
T3648 001:533 JLINK_WriteReg(R1, 0x00000400)  returns 0x00 (0000ms, 0736ms total)
T3648 001:533 JLINK_WriteReg(R2, 0x20000180)  returns 0x00 (0000ms, 0736ms total)
T3648 001:533 JLINK_WriteReg(R3, 0x00000000)  returns 0x00 (0000ms, 0736ms total)
T3648 001:533 JLINK_WriteReg(R4, 0x00000000)  returns 0x00 (0000ms, 0736ms total)
T3648 001:533 JLINK_WriteReg(R5, 0x00000000)  returns 0x00 (0000ms, 0736ms total)
T3648 001:533 JLINK_WriteReg(R6, 0x00000000)  returns 0x00 (0000ms, 0736ms total)
T3648 001:533 JLINK_WriteReg(R7, 0x00000000)  returns 0x00 (0000ms, 0736ms total)
T3648 001:533 JLINK_WriteReg(R8, 0x00000000)  returns 0x00 (0000ms, 0736ms total)
T3648 001:533 JLINK_WriteReg(R9, 0x2000017C)  returns 0x00 (0000ms, 0736ms total)
T3648 001:533 JLINK_WriteReg(R10, 0x00000000)  returns 0x00 (0000ms, 0736ms total)
T3648 001:533 JLINK_WriteReg(R11, 0x00000000)  returns 0x00 (0000ms, 0736ms total)
T3648 001:533 JLINK_WriteReg(R12, 0x00000000)  returns 0x00 (0000ms, 0736ms total)
T3648 001:533 JLINK_WriteReg(R13 (SP), 0x20001000)  returns 0x00 (0000ms, 0736ms total)
T3648 001:533 JLINK_WriteReg(R14, 0x20000001)  returns 0x00 (0000ms, 0736ms total)
T3648 001:533 JLINK_WriteReg(R15 (PC), 0x20000108)  returns 0x00 (0000ms, 0736ms total)
T3648 001:533 JLINK_WriteReg(XPSR, 0x01000000)  returns 0x00 (0000ms, 0736ms total)
T3648 001:533 JLINK_WriteReg(MSP, 0x20001000)  returns 0x00 (0000ms, 0736ms total)
T3648 001:533 JLINK_WriteReg(PSP, 0x20001000)  returns 0x00 (0000ms, 0736ms total)
T3648 001:533 JLINK_WriteReg(CFBP, 0x00000000)  returns 0x00 (0000ms, 0736ms total)
T3648 001:533 JLINK_SetBPEx(Addr = 0x20000000, Type = 0xFFFFFFF2)  returns 0x0000000C (0000ms, 0736ms total)
T3648 001:533 JLINK_Go() (0001ms, 0737ms total)
T3648 001:534 JLINK_IsHalted()  returns FALSE (0001ms, 0738ms total)
T3648 001:546 JLINK_IsHalted() -- CPU_ReadMem(2 bytes @ 0x20000000)  returns TRUE (0002ms, 0739ms total)
T3648 001:548 JLINK_ReadReg(R15 (PC))  returns 0x20000000 (0000ms, 0737ms total)
T3648 001:549 JLINK_ClrBPEx(BPHandle = 0x0000000C)  returns 0x00 (0000ms, 0738ms total)
T3648 001:549 JLINK_ReadReg(R0)  returns 0x00000000 (0000ms, 0738ms total)
T3648 001:549 JLINK_WriteMem(0x20000180, 0x0400 Bytes, ...) - Data: 70 47 70 47 2D E9 F0 47 0D 46 99 46 92 46 04 46 ... -- CPU_WriteMem(1024 bytes @ 0x20000180)  returns 0x400 (0007ms, 0745ms total)
T3648 001:556 JLINK_WriteReg(R0, 0x08001C00)  returns 0x00 (0000ms, 0745ms total)
T3648 001:556 JLINK_WriteReg(R1, 0x000001D0)  returns 0x00 (0000ms, 0745ms total)
T3648 001:556 JLINK_WriteReg(R2, 0x20000180)  returns 0x00 (0000ms, 0745ms total)
T3648 001:556 JLINK_WriteReg(R3, 0x00000000)  returns 0x00 (0000ms, 0745ms total)
T3648 001:556 JLINK_WriteReg(R4, 0x00000000)  returns 0x00 (0000ms, 0745ms total)
T3648 001:556 JLINK_WriteReg(R5, 0x00000000)  returns 0x00 (0000ms, 0745ms total)
T3648 001:556 JLINK_WriteReg(R6, 0x00000000)  returns 0x00 (0000ms, 0745ms total)
T3648 001:556 JLINK_WriteReg(R7, 0x00000000)  returns 0x00 (0000ms, 0745ms total)
T3648 001:556 JLINK_WriteReg(R8, 0x00000000)  returns 0x00 (0000ms, 0745ms total)
T3648 001:556 JLINK_WriteReg(R9, 0x2000017C)  returns 0x00 (0000ms, 0745ms total)
T3648 001:556 JLINK_WriteReg(R10, 0x00000000)  returns 0x00 (0000ms, 0745ms total)
T3648 001:556 JLINK_WriteReg(R11, 0x00000000)  returns 0x00 (0000ms, 0745ms total)
T3648 001:556 JLINK_WriteReg(R12, 0x00000000)  returns 0x00 (0000ms, 0745ms total)
T3648 001:556 JLINK_WriteReg(R13 (SP), 0x20001000)  returns 0x00 (0000ms, 0745ms total)
T3648 001:556 JLINK_WriteReg(R14, 0x20000001)  returns 0x00 (0000ms, 0745ms total)
T3648 001:556 JLINK_WriteReg(R15 (PC), 0x20000108)  returns 0x00 (0000ms, 0745ms total)
T3648 001:556 JLINK_WriteReg(XPSR, 0x01000000)  returns 0x00 (0000ms, 0745ms total)
T3648 001:556 JLINK_WriteReg(MSP, 0x20001000)  returns 0x00 (0000ms, 0745ms total)
T3648 001:556 JLINK_WriteReg(PSP, 0x20001000)  returns 0x00 (0000ms, 0745ms total)
T3648 001:556 JLINK_WriteReg(CFBP, 0x00000000)  returns 0x00 (0000ms, 0745ms total)
T3648 001:556 JLINK_SetBPEx(Addr = 0x20000000, Type = 0xFFFFFFF2)  returns 0x0000000D (0000ms, 0745ms total)
T3648 001:556 JLINK_Go() (0002ms, 0747ms total)
T3648 001:558 JLINK_IsHalted()  returns FALSE (0000ms, 0747ms total)
T3648 001:564 JLINK_IsHalted() -- CPU_ReadMem(2 bytes @ 0x20000000)  returns TRUE (0003ms, 0750ms total)
T3648 001:567 JLINK_ReadReg(R15 (PC))  returns 0x20000000 (0000ms, 0747ms total)
T3648 001:567 JLINK_ClrBPEx(BPHandle = 0x0000000D)  returns 0x00 (0000ms, 0747ms total)
T3648 001:567 JLINK_ReadReg(R0)  returns 0x00000000 (0000ms, 0747ms total)
T3648 001:567 JLINK_WriteReg(R0, 0x00000002)  returns 0x00 (0000ms, 0747ms total)
T3648 001:567 JLINK_WriteReg(R1, 0x000001D0)  returns 0x00 (0000ms, 0747ms total)
T3648 001:567 JLINK_WriteReg(R2, 0x20000180)  returns 0x00 (0000ms, 0747ms total)
T3648 001:567 JLINK_WriteReg(R3, 0x00000000)  returns 0x00 (0000ms, 0747ms total)
T3648 001:567 JLINK_WriteReg(R4, 0x00000000)  returns 0x00 (0000ms, 0747ms total)
T3648 001:567 JLINK_WriteReg(R5, 0x00000000)  returns 0x00 (0000ms, 0747ms total)
T3648 001:567 JLINK_WriteReg(R6, 0x00000000)  returns 0x00 (0000ms, 0747ms total)
T3648 001:567 JLINK_WriteReg(R7, 0x00000000)  returns 0x00 (0000ms, 0747ms total)
T3648 001:567 JLINK_WriteReg(R8, 0x00000000)  returns 0x00 (0000ms, 0747ms total)
T3648 001:567 JLINK_WriteReg(R9, 0x2000017C)  returns 0x00 (0000ms, 0747ms total)
T3648 001:567 JLINK_WriteReg(R10, 0x00000000)  returns 0x00 (0000ms, 0747ms total)
T3648 001:567 JLINK_WriteReg(R11, 0x00000000)  returns 0x00 (0000ms, 0747ms total)
T3648 001:567 JLINK_WriteReg(R12, 0x00000000)  returns 0x00 (0000ms, 0747ms total)
T3648 001:567 JLINK_WriteReg(R13 (SP), 0x20001000)  returns 0x00 (0000ms, 0747ms total)
T3648 001:567 JLINK_WriteReg(R14, 0x20000001)  returns 0x00 (0000ms, 0747ms total)
T3648 001:567 JLINK_WriteReg(R15 (PC), 0x20000082)  returns 0x00 (0000ms, 0747ms total)
T3648 001:567 JLINK_WriteReg(XPSR, 0x01000000)  returns 0x00 (0000ms, 0747ms total)
T3648 001:567 JLINK_WriteReg(MSP, 0x20001000)  returns 0x00 (0000ms, 0747ms total)
T3648 001:567 JLINK_WriteReg(PSP, 0x20001000)  returns 0x00 (0000ms, 0747ms total)
T3648 001:567 JLINK_WriteReg(CFBP, 0x00000000)  returns 0x00 (0000ms, 0747ms total)
T3648 001:567 JLINK_SetBPEx(Addr = 0x20000000, Type = 0xFFFFFFF2)  returns 0x0000000E (0000ms, 0747ms total)
T3648 001:567 JLINK_Go() (0001ms, 0748ms total)
T3648 001:568 JLINK_IsHalted() -- CPU_ReadMem(2 bytes @ 0x20000000)  returns TRUE (0004ms, 0752ms total)
T3648 001:572 JLINK_ReadReg(R15 (PC))  returns 0x20000000 (0000ms, 0748ms total)
T3648 001:572 JLINK_ClrBPEx(BPHandle = 0x0000000E)  returns 0x00 (0000ms, 0748ms total)
T3648 001:572 JLINK_ReadReg(R0)  returns 0x00000000 (0000ms, 0748ms total)
T3648 001:655 JLINK_WriteMem(0x20000000, 0x0180 Bytes, ...) - Data: 00 BE 0A E0 0D 78 2D 06 68 40 08 24 40 00 00 D3 ... -- CPU_WriteMem(384 bytes @ 0x20000000)  returns 0x180 (0003ms, 0751ms total)
T3648 001:658 JLINK_WriteReg(R0, 0x08000000)  returns 0x00 (0000ms, 0751ms total)
T3648 001:658 JLINK_WriteReg(R1, 0x007A1200)  returns 0x00 (0000ms, 0751ms total)
T3648 001:658 JLINK_WriteReg(R2, 0x00000003)  returns 0x00 (0000ms, 0751ms total)
T3648 001:658 JLINK_WriteReg(R3, 0x00000000)  returns 0x00 (0000ms, 0751ms total)
T3648 001:658 JLINK_WriteReg(R4, 0x00000000)  returns 0x00 (0000ms, 0751ms total)
T3648 001:658 JLINK_WriteReg(R5, 0x00000000)  returns 0x00 (0000ms, 0751ms total)
T3648 001:658 JLINK_WriteReg(R6, 0x00000000)  returns 0x00 (0000ms, 0751ms total)
T3648 001:658 JLINK_WriteReg(R7, 0x00000000)  returns 0x00 (0000ms, 0751ms total)
T3648 001:658 JLINK_WriteReg(R8, 0x00000000)  returns 0x00 (0000ms, 0751ms total)
T3648 001:658 JLINK_WriteReg(R9, 0x2000017C)  returns 0x00 (0001ms, 0752ms total)
T3648 001:659 JLINK_WriteReg(R10, 0x00000000)  returns 0x00 (0000ms, 0752ms total)
T3648 001:659 JLINK_WriteReg(R11, 0x00000000)  returns 0x00 (0000ms, 0752ms total)
T3648 001:659 JLINK_WriteReg(R12, 0x00000000)  returns 0x00 (0000ms, 0752ms total)
T3648 001:659 JLINK_WriteReg(R13 (SP), 0x20001000)  returns 0x00 (0000ms, 0752ms total)
T3648 001:659 JLINK_WriteReg(R14, 0x20000001)  returns 0x00 (0000ms, 0752ms total)
T3648 001:659 JLINK_WriteReg(R15 (PC), 0x20000054)  returns 0x00 (0000ms, 0752ms total)
T3648 001:659 JLINK_WriteReg(XPSR, 0x01000000)  returns 0x00 (0000ms, 0752ms total)
T3648 001:659 JLINK_WriteReg(MSP, 0x20001000)  returns 0x00 (0000ms, 0752ms total)
T3648 001:659 JLINK_WriteReg(PSP, 0x20001000)  returns 0x00 (0000ms, 0752ms total)
T3648 001:659 JLINK_WriteReg(CFBP, 0x00000000)  returns 0x00 (0000ms, 0752ms total)
T3648 001:659 JLINK_SetBPEx(Addr = 0x20000000, Type = 0xFFFFFFF2) -- CPU_ReadMem(2 bytes @ 0x20000000)  returns 0x0000000F (0001ms, 0753ms total)
T3648 001:660 JLINK_Go() -- CPU_WriteMem(2 bytes @ 0x20000000) (0002ms, 0755ms total)
T3648 001:662 JLINK_IsHalted() -- CPU_ReadMem(2 bytes @ 0x20000000)  returns TRUE (0003ms, 0758ms total)
T3648 001:665 JLINK_ReadReg(R15 (PC))  returns 0x20000000 (0000ms, 0755ms total)
T3648 001:665 JLINK_ClrBPEx(BPHandle = 0x0000000F)  returns 0x00 (0000ms, 0755ms total)
T3648 001:665 JLINK_ReadReg(R0)  returns 0x00000000 (0000ms, 0755ms total)
T3648 001:665 JLINK_WriteReg(R0, 0xFFFFFFFF)  returns 0x00 (0000ms, 0755ms total)
T3648 001:665 JLINK_WriteReg(R1, 0x08000000)  returns 0x00 (0000ms, 0755ms total)
T3648 001:665 JLINK_WriteReg(R2, 0x00001DD0)  returns 0x00 (0000ms, 0755ms total)
T3648 001:665 JLINK_WriteReg(R3, 0x04C11DB7)  returns 0x00 (0000ms, 0755ms total)
T3648 001:665 JLINK_WriteReg(R4, 0x00000000)  returns 0x00 (0000ms, 0755ms total)
T3648 001:665 JLINK_WriteReg(R5, 0x00000000)  returns 0x00 (0000ms, 0755ms total)
T3648 001:665 JLINK_WriteReg(R6, 0x00000000)  returns 0x00 (0000ms, 0755ms total)
T3648 001:665 JLINK_WriteReg(R7, 0x00000000)  returns 0x00 (0000ms, 0755ms total)
T3648 001:665 JLINK_WriteReg(R8, 0x00000000)  returns 0x00 (0000ms, 0755ms total)
T3648 001:665 JLINK_WriteReg(R9, 0x2000017C)  returns 0x00 (0000ms, 0755ms total)
T3648 001:665 JLINK_WriteReg(R10, 0x00000000)  returns 0x00 (0000ms, 0755ms total)
